<Qucs Dataset 0.0.19>
<indep frequency 250>
1.000000000000e+00
4.115662650602e+01
8.131325301205e+01
1.214698795181e+02
1.616265060241e+02
2.017831325301e+02
2.419397590361e+02
2.820963855422e+02
3.222530120482e+02
3.624096385542e+02
4.025662650602e+02
4.427228915663e+02
4.828795180723e+02
5.230361445783e+02
5.631927710843e+02
6.033493975904e+02
6.435060240964e+02
6.836626506024e+02
7.238192771084e+02
7.639759036145e+02
8.041325301205e+02
8.442891566265e+02
8.844457831325e+02
9.246024096386e+02
9.647590361446e+02
1.004915662651e+03
1.045072289157e+03
1.085228915663e+03
1.125385542169e+03
1.165542168675e+03
1.205698795181e+03
1.245855421687e+03
1.286012048193e+03
1.326168674699e+03
1.366325301205e+03
1.406481927711e+03
1.446638554217e+03
1.486795180723e+03
1.526951807229e+03
1.567108433735e+03
1.607265060241e+03
1.647421686747e+03
1.687578313253e+03
1.727734939759e+03
1.767891566265e+03
1.808048192771e+03
1.848204819277e+03
1.888361445783e+03
1.928518072289e+03
1.968674698795e+03
2.008831325301e+03
2.048987951807e+03
2.089144578313e+03
2.129301204819e+03
2.169457831325e+03
2.209614457831e+03
2.249771084337e+03
2.289927710843e+03
2.330084337349e+03
2.370240963855e+03
2.410397590361e+03
2.450554216867e+03
2.490710843373e+03
2.530867469880e+03
2.571024096386e+03
2.611180722892e+03
2.651337349398e+03
2.691493975904e+03
2.731650602410e+03
2.771807228916e+03
2.811963855422e+03
2.852120481928e+03
2.892277108434e+03
2.932433734940e+03
2.972590361446e+03
3.012746987952e+03
3.052903614458e+03
3.093060240964e+03
3.133216867470e+03
3.173373493976e+03
3.213530120482e+03
3.253686746988e+03
3.293843373494e+03
3.334000000000e+03
3.374156626506e+03
3.414313253012e+03
3.454469879518e+03
3.494626506024e+03
3.534783132530e+03
3.574939759036e+03
3.615096385542e+03
3.655253012048e+03
3.695409638554e+03
3.735566265060e+03
3.775722891566e+03
3.815879518072e+03
3.856036144578e+03
3.896192771084e+03
3.936349397590e+03
3.976506024096e+03
4.016662650602e+03
4.056819277108e+03
4.096975903614e+03
4.137132530120e+03
4.177289156627e+03
4.217445783133e+03
4.257602409639e+03
4.297759036145e+03
4.337915662651e+03
4.378072289157e+03
4.418228915663e+03
4.458385542169e+03
4.498542168675e+03
4.538698795181e+03
4.578855421687e+03
4.619012048193e+03
4.659168674699e+03
4.699325301205e+03
4.739481927711e+03
4.779638554217e+03
4.819795180723e+03
4.859951807229e+03
4.900108433735e+03
4.940265060241e+03
4.980421686747e+03
5.020578313253e+03
5.060734939759e+03
5.100891566265e+03
5.141048192771e+03
5.181204819277e+03
5.221361445783e+03
5.261518072289e+03
5.301674698795e+03
5.341831325301e+03
5.381987951807e+03
5.422144578313e+03
5.462301204819e+03
5.502457831325e+03
5.542614457831e+03
5.582771084337e+03
5.622927710843e+03
5.663084337349e+03
5.703240963855e+03
5.743397590361e+03
5.783554216867e+03
5.823710843373e+03
5.863867469880e+03
5.904024096386e+03
5.944180722892e+03
5.984337349398e+03
6.024493975904e+03
6.064650602410e+03
6.104807228916e+03
6.144963855422e+03
6.185120481928e+03
6.225277108434e+03
6.265433734940e+03
6.305590361446e+03
6.345746987952e+03
6.385903614458e+03
6.426060240964e+03
6.466216867470e+03
6.506373493976e+03
6.546530120482e+03
6.586686746988e+03
6.626843373494e+03
6.667000000000e+03
6.707156626506e+03
6.747313253012e+03
6.787469879518e+03
6.827626506024e+03
6.867783132530e+03
6.907939759036e+03
6.948096385542e+03
6.988253012048e+03
7.028409638554e+03
7.068566265060e+03
7.108722891566e+03
7.148879518072e+03
7.189036144578e+03
7.229192771084e+03
7.269349397590e+03
7.309506024096e+03
7.349662650602e+03
7.389819277108e+03
7.429975903614e+03
7.470132530120e+03
7.510289156626e+03
7.550445783133e+03
7.590602409639e+03
7.630759036145e+03
7.670915662651e+03
7.711072289157e+03
7.751228915663e+03
7.791385542169e+03
7.831542168675e+03
7.871698795181e+03
7.911855421687e+03
7.952012048193e+03
7.992168674699e+03
8.032325301205e+03
8.072481927711e+03
8.112638554217e+03
8.152795180723e+03
8.192951807229e+03
8.233108433735e+03
8.273265060241e+03
8.313421686747e+03
8.353578313253e+03
8.393734939759e+03
8.433891566265e+03
8.474048192771e+03
8.514204819277e+03
8.554361445783e+03
8.594518072289e+03
8.634674698795e+03
8.674831325301e+03
8.714987951807e+03
8.755144578313e+03
8.795301204819e+03
8.835457831325e+03
8.875614457831e+03
8.915771084337e+03
8.955927710843e+03
8.996084337349e+03
9.036240963855e+03
9.076397590361e+03
9.116554216867e+03
9.156710843373e+03
9.196867469879e+03
9.237024096386e+03
9.277180722892e+03
9.317337349398e+03
9.357493975904e+03
9.397650602410e+03
9.437807228916e+03
9.477963855422e+03
9.518120481928e+03
9.558277108434e+03
9.598433734940e+03
9.638590361446e+03
9.678746987952e+03
9.718903614458e+03
9.759060240964e+03
9.799216867470e+03
9.839373493976e+03
9.879530120482e+03
9.919686746988e+03
9.959843373494e+03
1.000000000000e+04
</indep>
<dep ac.v(out) frequency>
-3.023569777039e-06-j5.610826210721e-08
-3.076382395478e-06-j2.308020050880e-06
-3.229497206637e-06-j4.553049002892e-06
-3.482005690736e-06-j6.784547901004e-06
-3.832418557802e-06-j8.996002645773e-06
-4.278687561056e-06-j1.118109454473e-05
-4.818235109303e-06-j1.333375863355e-05
-5.447990889130e-06-j1.544823694334e-05
-6.164434539728e-06-j1.751912578246e-05
-6.963643304590e-06-j1.954141631492e-05
-7.841343492836e-06-j2.151052790673e-05
-8.792964553350e-06-j2.342233395395e-05
-9.813694563429e-06-j2.527318009569e-05
-1.089853597367e-05-j2.705989492892e-05
-1.204236053942e-05-j2.877979352836e-05
-1.323996246100e-05-j3.043067421486e-05
-1.448610888666e-05-j3.201080915640e-05
-1.577558707849e-05-j3.351892948390e-05
-1.710324768118e-05-j3.495420566371e-05
-1.846404368883e-05-j3.631622391158e-05
-1.985306483177e-05-j3.760495942632e-05
-2.126556727525e-05-j3.882074724078e-05
-2.269699858891e-05-j3.996425140158e-05
-2.414301811159e-05-j4.103643319064e-05
-2.559951286865e-05-j4.203851899201e-05
-2.706260931659e-05-j4.297196836982e-05
-2.852868119485e-05-j4.383844281541e-05
-2.999435386661e-05-j4.463977558128e-05
-3.145650548040e-05-j4.537794290320e-05
-3.291226535387e-05-j4.605503687141e-05
-3.435900995880e-05-j4.667324013017e-05
-3.579435684976e-05-j4.723480251779e-05
-3.721615692677e-05-j4.774201972819e-05
-3.862248533012e-05-j4.819721400310e-05
-4.001163128071e-05-j4.860271684021e-05
-4.138208715590e-05-j4.896085367072e-05
-4.273253701774e-05-j4.927393042174e-05
-4.406184482560e-05-j4.954422187552e-05
-4.536904254205e-05-j4.977396171496e-05
-4.665331823582e-05-j4.996533413198e-05
-4.791400437591e-05-j5.012046688080e-05
-4.915056638902e-05-j5.024142564601e-05
-5.036259158794e-05-j5.033020960156e-05
-5.154977850586e-05-j5.038874803858e-05
-5.271192675419e-05-j5.041889794334e-05
-5.384892735317e-05-j5.042244241619e-05
-5.496075364398e-05-j5.040108982250e-05
-5.604745272854e-05-j5.035647358259e-05
-5.710913748154e-05-j5.029015250678e-05
-5.814597910309e-05-j5.020361159755e-05
-5.915820022627e-05-j5.009826323981e-05
-6.014606854384e-05-j4.997544871560e-05
-6.110989094518e-05-j4.983643998159e-05
-6.205000813784e-05-j4.968244165705e-05
-6.296678973234e-05-j4.951459317420e-05
-6.386062976610e-05-j4.933397104934e-05
-6.473194262997e-05-j4.914159124274e-05
-6.558115939062e-05-j4.893841156933e-05
-6.640872446638e-05-j4.872533413962e-05
-6.721509263160e-05-j4.850320780791e-05
-6.800072634586e-05-j4.827283060109e-05
-6.876609334701e-05-j4.803495212613e-05
-6.951166452695e-05-j4.779027592711e-05
-7.023791203370e-05-j4.753946179479e-05
-7.094530760019e-05-j4.728312801235e-05
-7.163432107935e-05-j4.702185353007e-05
-7.230541914960e-05-j4.675618007311e-05
-7.295906419842e-05-j4.648661416708e-05
-7.359571335745e-05-j4.621362908334e-05
-7.421581766152e-05-j4.593766671138e-05
-7.481982134059e-05-j4.565913934448e-05
-7.540816122814e-05-j4.537843138159e-05
-7.598126625915e-05-j4.509590095444e-05
-7.653955705342e-05-j4.481188147948e-05
-7.708344559766e-05-j4.452668312021e-05
-7.761333498125e-05-j4.424059418585e-05
-7.812961919482e-05-j4.395388245834e-05
-7.863268301096e-05-j4.366679642993e-05
-7.912290186863e-05-j4.337956650663e-05
-7.960064185058e-05-j4.309240611040e-05
-8.006625966150e-05-j4.280551274675e-05
-8.052010266260e-05-j4.251906899548e-05
-8.096250892154e-05-j4.223324345532e-05
-8.139380729797e-05-j4.194819162606e-05
-8.181431754494e-05-j4.166405674355e-05
-8.222435042549e-05-j4.138097056927e-05
-8.262420785710e-05-j4.109905412237e-05
-8.301418306062e-05-j4.081841837536e-05
-8.339456071484e-05-j4.053916491337e-05
-8.376561713408e-05-j4.026138654102e-05
-8.412762044807e-05-j3.998516785565e-05
-8.448083077164e-05-j3.971058580231e-05
-8.482550040842e-05-j3.943771016480e-05
-8.516187403314e-05-j3.916660405040e-05
-8.549018888453e-05-j3.889732433639e-05
-8.581067495837e-05-j3.862992208939e-05
-8.612355520184e-05-j3.836444295785e-05
-8.642904571008e-05-j3.810092753578e-05
-8.672735591036e-05-j3.783941171706e-05
-8.701868875706e-05-j3.757992701280e-05
-8.730324091995e-05-j3.732250085400e-05
-8.758120296626e-05-j3.706715687894e-05
-8.785275954199e-05-j3.681391520023e-05
-8.811808955620e-05-j3.656279264708e-05
-8.837736634997e-05-j3.631380300651e-05
-8.863075787267e-05-j3.606695723591e-05
-8.887842684943e-05-j3.582226366769e-05
-8.912053094010e-05-j3.557972820755e-05
-8.935722290628e-05-j3.533935450362e-05
-8.958865076191e-05-j3.510114412141e-05
-8.981495792803e-05-j3.486509669621e-05
-9.003628337958e-05-j3.463121008092e-05
-9.025276178856e-05-j3.439948048361e-05
-9.046452366234e-05-j3.416990259746e-05
-9.067169548372e-05-j3.394246971382e-05
-9.087439983681e-05-j3.371717384215e-05
-9.107275553749e-05-j3.349400581047e-05
-9.126687775643e-05-j3.327295536368e-05
-9.145687813813e-05-j3.305401125630e-05
-9.164286491891e-05-j3.283716133407e-05
-9.182494303639e-05-j3.262239261857e-05
-9.200321423905e-05-j3.240969138012e-05
-9.217777719339e-05-j3.219904320346e-05
-9.234872758250e-05-j3.199043305822e-05
-9.251615820653e-05-j3.178384535583e-05
-9.268015907772e-05-j3.157926400550e-05
-9.284081751015e-05-j3.137667247120e-05
-9.299821821117e-05-j3.117605381578e-05
-9.315244336664e-05-j3.097739074775e-05
-9.330357272294e-05-j3.078066566554e-05
-9.345168366787e-05-j3.058586069554e-05
-9.359685130681e-05-j3.039295773175e-05
-9.373914854016e-05-j3.020193846426e-05
-9.387864613296e-05-j3.001278441665e-05
-9.401541278536e-05-j2.982547697389e-05
-9.414951520052e-05-j2.963999740882e-05
-9.428101814826e-05-j2.945632691038e-05
-9.440998453016e-05-j2.927444660232e-05
-9.453647543805e-05-j2.909433756972e-05
-9.466055021298e-05-j2.891598087853e-05
-9.478226650241e-05-j2.873935759233e-05
-9.490168031438e-05-j2.856444879090e-05
-9.501884606888e-05-j2.839123558923e-05
-9.513381665163e-05-j2.821969914531e-05
-9.524664346069e-05-j2.804982067954e-05
-9.535737645391e-05-j2.788158148730e-05
-9.546606419601e-05-j2.771496294730e-05
-9.557275390231e-05-j2.754994653303e-05
-9.567749148047e-05-j2.738651382496e-05
-9.578032157254e-05-j2.722464651712e-05
-9.588128759448e-05-j2.706432642575e-05
-9.598043177603e-05-j2.690553549299e-05
-9.607779519359e-05-j2.674825580458e-05
-9.617341781124e-05-j2.659246958222e-05
-9.626733851177e-05-j2.643815919834e-05
-9.635959513219e-05-j2.628530717549e-05
-9.645022449451e-05-j2.613389619487e-05
-9.653926243785e-05-j2.598390909758e-05
-9.662674384717e-05-j2.583532889233e-05
-9.671270268501e-05-j2.568813875044e-05
-9.679717201684e-05-j2.554232201714e-05
-9.688018404078e-05-j2.539786220579e-05
-9.696177011097e-05-j2.525474300890e-05
-9.704196076578e-05-j2.511294829117e-05
-9.712078575040e-05-j2.497246209680e-05
-9.719827404180e-05-j2.483326864646e-05
-9.727445387089e-05-j2.469535234077e-05
-9.734935274439e-05-j2.455869776224e-05
-9.742299746809e-05-j2.442328966871e-05
-9.749541416519e-05-j2.428911300242e-05
-9.756662829780e-05-j2.415615288453e-05
-9.763666468637e-05-j2.402439461495e-05
-9.770554752749e-05-j2.389382367534e-05
-9.777330041277e-05-j2.376442572607e-05
-9.783994634643e-05-j2.363618660514e-05
-9.790550776188e-05-j2.350909232938e-05
-9.797000653849e-05-j2.338312909193e-05
-9.803346401714e-05-j2.325828326262e-05
-9.809590101603e-05-j2.313454138551e-05
-9.815733784521e-05-j2.301189017896e-05
-9.821779432131e-05-j2.289031653336e-05
-9.827728978114e-05-j2.276980751092e-05
-9.833584309564e-05-j2.265035034304e-05
-9.839347268250e-05-j2.253193243012e-05
-9.845019651932e-05-j2.241454133867e-05
-9.850603215550e-05-j2.229816480094e-05
-9.856099672416e-05-j2.218279071363e-05
-9.861510695366e-05-j2.206840713595e-05
-9.866837917915e-05-j2.195500228643e-05
-9.872082935328e-05-j2.184256454107e-05
-9.877247305593e-05-j2.173108243582e-05
-9.882332550502e-05-j2.162054466186e-05
-9.887340156647e-05-j2.151094006222e-05
-9.892271576349e-05-j2.140225763225e-05
-9.897128228567e-05-j2.129448651820e-05
-9.901911499815e-05-j2.118761601416e-05
-9.906622745022e-05-j2.108163556140e-05
-9.911263288407e-05-j2.097653474401e-05
-9.915834424213e-05-j2.087230329227e-05
-9.920337417635e-05-j2.076893107264e-05
-9.924773505426e-05-j2.066640809629e-05
-9.929143896796e-05-j2.056472450691e-05
-9.933449774007e-05-j2.046387058792e-05
-9.937692293165e-05-j2.036383675439e-05
-9.941872584852e-05-j2.026461355475e-05
-9.945991754830e-05-j2.016619166582e-05
-9.950050884629e-05-j2.006856189470e-05
-9.954051032207e-05-j1.997171517516e-05
-9.957993232548e-05-j1.987564256509e-05
-9.961878498254e-05-j1.978033524536e-05
-9.965707820074e-05-j1.968578452111e-05
-9.969482167522e-05-j1.959198181459e-05
-9.973202489380e-05-j1.949891866648e-05
-9.976869714205e-05-j1.940658673531e-05
-9.980484750868e-05-j1.931497779335e-05
-9.984048489027e-05-j1.922408372646e-05
-9.987561799606e-05-j1.913389653218e-05
-9.991025535262e-05-j1.904440831830e-05
-9.994440530862e-05-j1.895561129924e-05
-9.997807603863e-05-j1.886749779902e-05
-1.000112755480e-04-j1.878006024506e-05
-1.000440116767e-04-j1.869329116715e-05
-1.000762921033e-04-j1.860718320167e-05
-1.001081243493e-04-j1.852172907851e-05
-1.001395157821e-04-j1.843692163568e-05
-1.001704736197e-04-j1.835275380175e-05
-1.002010049339e-04-j1.826921860257e-05
-1.002311166531e-04-j1.818630916331e-05
-1.002608155670e-04-j1.810401869796e-05
-1.002901083291e-04-j1.802234051364e-05
-1.003190014600e-04-j1.794126800836e-05
-1.003475013506e-04-j1.786079467004e-05
-1.003756142653e-04-j1.778091407505e-05
-1.004033463449e-04-j1.770161988240e-05
-1.004307036092e-04-j1.762290584152e-05
-1.004576919604e-04-j1.754476578235e-05
-1.004843171851e-04-j1.746719362065e-05
-1.005105849576e-04-j1.739018335114e-05
-1.005365008423e-04-j1.731372904931e-05
-1.005620702962e-04-j1.723782487040e-05
-1.005872986710e-04-j1.716246504622e-05
-1.006121912163e-04-j1.708764388841e-05
-1.006367530811e-04-j1.701335578098e-05
-1.006609893167e-04-j1.693959518391e-05
-1.006849048785e-04-j1.686635662930e-05
-1.007085046285e-04-j1.679363472380e-05
-1.007317933369e-04-j1.672142414213e-05
-1.007547756848e-04-j1.664971963140e-05
-1.007774562656e-04-j1.657851600717e-05
-1.007998395873e-04-j1.650780815166e-05
</dep>
<dep ac.v(vbias) frequency>
-2.491702094246e-06+j1.456040074414e-09
-2.490330891144e-06+j5.989436552754e-08
-2.486355487190e-06+j1.181539833838e-07
-2.479799471439e-06+j1.760623037327e-07
-2.470701512221e-06+j2.334501929677e-07
-2.459114790773e-06+j2.901535910823e-07
-2.445106232373e-06+j3.460150259379e-07
-2.428755555473e-06+j4.008849963085e-07
-2.410154163680e-06+j4.546231995204e-07
-2.389403908508e-06+j5.070995850395e-07
-2.366615753229e-06+j5.581952202865e-07
-2.341908368874e-06+j6.078029612424e-07
-2.315406693509e-06+j6.558279253354e-07
-2.287240484864e-06+j7.021877696453e-07
-2.257542894072e-06+j7.468127822927e-07
-2.226449085928e-06+j7.896457985325e-07
-2.194094927610e-06+j8.306419567174e-07
-2.160615764057e-06+j8.697683118384e-07
-2.126145294520e-06+j9.070033259135e-07
-2.090814560824e-06+j9.423362555898e-07
-2.054751054533e-06+j9.757664571793e-07
-2.018077945850e-06+j1.007302629822e-06
-1.980913435299e-06+j1.036962015261e-06
-1.943370224971e-06+j1.064769572741e-06
-1.905555105239e-06+j1.090757144688e-06
-1.867568649821e-06+j1.114962627879e-06
-1.829505011909e-06+j1.137429161988e-06
-1.791451811469e-06+j1.158204346337e-06
-1.753490105075e-06+j1.177339492711e-06
-1.715694427878e-06+j1.194888920967e-06
-1.678132897850e-06+j1.210909302133e-06
-1.640867373421e-06+j1.225459051881e-06
-1.603953654375e-06+j1.238597776493e-06
-1.567441718259e-06+j1.250385771542e-06
-1.531375984172e-06+j1.260883572926e-06
-1.495795596401e-06+j1.270151559032e-06
-1.460734722279e-06+j1.278249601836e-06
-1.426222858232e-06+j1.285236764661e-06
-1.392285138607e-06+j1.291171043714e-06
-1.358942644564e-06+j1.296109150204e-06
-1.326212708015e-06+j1.300106329978e-06
-1.294109208719e-06+j1.303216217288e-06
-1.262642861754e-06+j1.305490719485e-06
-1.231821494436e-06+j1.306979929464e-06
-1.201650309658e-06+j1.307732062776e-06
-1.172132136948e-06+j1.307793416578e-06
-1.143267668431e-06+j1.307208347588e-06
-1.115055681085e-06+j1.306019266626e-06
-1.087493244145e-06+j1.304266647322e-06
-1.060575912467e-06+j1.301989046936e-06
-1.034297905488e-06+j1.299223137265e-06
-1.008652272701e-06+j1.296003743972e-06
-9.836310458845e-07+j1.292363892738e-06
-9.592253787544e-07+j1.288334860875e-06
-9.354256745788e-07+j1.283946233160e-06
-9.122217023993e-07+j1.279225960805e-06
-8.896027027927e-07+j1.274200422728e-06
-8.675574833604e-07+j1.268894488143e-06
-8.460745050364e-07+j1.263331579943e-06
-8.251419598657e-07+j1.257533738257e-06
-8.047478403533e-07+j1.251521683519e-06
-7.848800019541e-07+j1.245314878976e-06
-7.655262182308e-07+j1.238931591883e-06
-7.466742301304e-07+j1.232388953470e-06
-7.283117893753e-07+j1.225703017258e-06
-7.104266965014e-07+j1.218888815510e-06
-6.930068344656e-07+j1.211960413972e-06
-6.760401976350e-07+j1.204930964455e-06
-6.595149168417e-07+j1.197812755347e-06
-6.434192812150e-07+j1.190617260230e-06
-6.277417565639e-07+j1.183355184240e-06
-6.124710007439e-07+j1.176036508257e-06
-5.975958766884e-07+j1.168670531150e-06
-5.831054632240e-07+j1.161265910077e-06
-5.689890633311e-07+j1.153830698445e-06
-5.552362110020e-07+j1.146372382232e-06
-5.418366764657e-07+j1.138897914441e-06
-5.287804692975e-07+j1.131413747227e-06
-5.160578414049e-07+j1.123925863156e-06
-5.036592876273e-07+j1.116439803807e-06
-4.915755462935e-07+j1.108960697504e-06
-4.797975983314e-07+j1.101493285034e-06
-4.683166659649e-07+j1.094041944176e-06
-4.571242104982e-07+j1.086610712603e-06
-4.462119296814e-07+j1.079203309563e-06
-4.355717546791e-07+j1.071823156381e-06
-4.251958463261e-07+j1.064473395463e-06
-4.150765912597e-07+j1.057156908362e-06
-4.052065978999e-07+j1.049876332893e-06
-3.955786918452e-07+j1.042634078892e-06
-3.861859112040e-07+j1.035432343098e-06
-3.770215021762e-07+j1.028273123562e-06
-3.680789137797e-07+j1.021158232399e-06
-3.593517931085e-07+j1.014089308373e-06
-3.508339803258e-07+j1.007067828487e-06
-3.425195036508e-07+j1.000095118878e-06
-3.344025743135e-07+j9.931723650011e-07
-3.264775814537e-07+j9.863006210754e-07
-3.187390873336e-07+j9.794808192848e-07
-3.111818222792e-07+j9.727137780179e-07
-3.038006797922e-07+j9.660002097238e-07
-2.965907118206e-07+j9.593407283771e-07
-2.895471240493e-07+j9.527358564105e-07
-2.826652711223e-07+j9.461860310032e-07
-2.759406522468e-07+j9.396916103475e-07
-2.693689066235e-07+j9.332528791646e-07
-2.629458090969e-07+j9.268700540193e-07
-2.566672660229e-07+j9.205432884687e-07
-2.505293109397e-07+j9.142726774522e-07
-2.445281006516e-07+j9.080582618357e-07
-2.386599112145e-07+j9.019000323668e-07
-2.329211341234e-07+j8.957979335144e-07
-2.273082725949e-07+j8.897518670397e-07
-2.218179379736e-07+j8.837616953706e-07
-2.164468461033e-07+j8.778272445362e-07
-2.111918140498e-07+j8.719483072818e-07
-2.060497567181e-07+j8.661246456766e-07
-2.010176836580e-07+j8.603559936675e-07
-1.960926959718e-07+j8.546420594848e-07
-1.912719832541e-07+j8.489825277635e-07
-1.865528207451e-07+j8.433770617380e-07
-1.819325664872e-07+j8.378253051371e-07
-1.774086585456e-07+j8.323268838876e-07
-1.729786124445e-07+j8.268814079451e-07
-1.686400185620e-07+j8.214884727706e-07
-1.643905396618e-07+j8.161476607853e-07
-1.602279085602e-07+j8.108585428487e-07
-1.561499257561e-07+j8.056206794053e-07
